Freq [GHz],"im(S(1,1)) []","re(S(1,1)) []","im(S(2,1)) []","re(S(2,1)) []"
40.000000000000, -0.14474555850029,0.86573600769043,-0.48259213566780, 0.02146995253861 
40.060001373291, -0.15106992423534,0.86324232816696,-0.48524114489555, 0.01821970194578 
40.119998931885, -0.15736417472363,0.86069589853287,-0.48786205053329, 0.01493369694799 
40.180000305176, -0.16362787783146,0.85809719562531,-0.49045449495316, 0.01161233242601 
40.240001678467, -0.16986048221588,0.85544639825821,-0.49301809072495, 0.00825600791722 
40.299999237061, -0.17606154084206,0.85274404287338,-0.49555236101151, 0.00486512947827 
40.360000610352, -0.18223059177399,0.84999048709869,-0.49805694818497, 0.00143975601531 
40.419998168945, -0.18836709856987,0.84718596935272,-0.50053155422211, -0.0020198167767 
40.479999542236, -0.19447067379951,0.84433114528656,-0.50297564268112, -0.0055127968080 
40.540000915527, -0.20054082572460,0.84142619371414,-0.50538897514343, -0.0090393796563 
40.599998474121, -0.20657706260681,0.83847165107727,-0.50777113437653, -0.0125990044325 
40.659999847412, -0.21257898211479,0.83546793460846,-0.51012170314789, -0.0161915961652 
40.720001220703, -0.21854612231255,0.83241546154022,-0.51244032382965, -0.0198161061853 
40.779998779297, -0.22447803616524,0.82931452989578,-0.51472681760788, -0.0234726965427 
40.840000152588, -0.23037429153919,0.82616567611694,-0.51698052883148, -0.0271610412746 
40.900001525879, -0.23623450100422,0.82296919822693,-0.51920127868652, -0.0308808051049 
40.959999084473, -0.24205815792084,0.81972581148148,-0.52138870954514, -0.0346316620707 
41.020000457764, -0.24784493446350,0.81643563508987,-0.52354240417480, -0.0384127609431 
41.080001831055, -0.25359436869621,0.81309926509857,-0.52566218376160, -0.0422242693603 
41.139999389648, -0.25930607318878,0.80971717834473,-0.52774757146835, -0.0460653342306 
41.200000762939, -0.26497966051102,0.80628979206085,-0.52979832887650, -0.0499360971152 
41.259998321533, -0.27061471343040,0.80281746387482,-0.53181403875351, -0.0538359619677 
41.319999694824, -0.27621081471443,0.79930067062378,-0.53379446268082, -0.0577645748853 
41.380001068115, -0.28176766633987,0.79574006795883,-0.53573924303055, -0.0617213100194 
41.439998626709, -0.28728488087654,0.79213589429855,-0.53764814138412, -0.0657060593366 
41.500000000000, -0.29276201128960,0.78848868608475,-0.53952074050903, -0.0697184503078 
41.560001373291, -0.29819875955582,0.78479897975922,-0.54135680198669, -0.0737578645348 
41.619998931885, -0.30359473824501,0.78106713294983,-0.54315608739853, -0.0778241753578 
41.680000305176, -0.30894964933395,0.77729368209839,-0.54491817951202, -0.0819167494773 
41.740001678467, -0.31426307559013,0.77347904443741,-0.54664289951324, -0.0860354676842 
41.799999237061, -0.31953471899033,0.76962381601334,-0.54833000898361, -0.0901794210076 
41.860000610352, -0.32476425170898,0.76572841405869,-0.54997920989990, -0.0943484902381 
41.919998168945, -0.32995131611824,0.76179319620132,-0.55159002542496, -0.0985425412654 
41.979999542236, -0.33509561419487,0.75781887769699,-0.55316245555878, -0.1027609184384 
42.040000915527, -0.34019687771797,0.75380587577820,-0.55469614267349, -0.1070029661059 
42.099998474121, -0.34525471925735,0.74975466728210,-0.55619084835052, -0.1112685501575 
42.159999847412, -0.35026884078979,0.74566566944122,-0.55764645338058, -0.1155570074915 
42.220001220703, -0.35523900389671,0.74153953790665,-0.55906236171722, -0.1198684573173 
42.279998779297, -0.36016488075256,0.73737651109695,-0.56043863296509, -0.1242019757628 
42.340000152588, -0.36504623293877,0.73317742347717,-0.56177496910095, -0.1285574138164 
42.400001525879, -0.36988267302513,0.72894251346588,-0.56307113170624, -0.1329338103532 
42.459999084473, -0.37467405200005,0.72467249631882,-0.56432688236237, -0.1373315900564 
42.520000457764, -0.37942010164261,0.72036767005920,-0.56554204225540, -0.1417497843504 
42.580001831055, -0.38412043452263,0.71602863073349,-0.56671643257141, -0.1461877077817 
42.639999389648, -0.38877493143082,0.71165591478348,-0.56784981489182, -0.1506454944610 
42.700000762939, -0.39338329434395,0.70725011825562,-0.56894189119339, -0.1551224291324 
42.759998321533, -0.39794528484344,0.70281159877777,-0.56999260187149, -0.1596181094646 
42.819999694824, -0.40246066451073,0.69834089279175,-0.57100164890289, -0.1641321331262 
42.880001068115, -0.40692925453186,0.69383859634399,-0.57196903228760, -0.1686640232801 
42.939998626709, -0.41135075688362,0.68930518627167,-0.57289439439774, -0.1732131242752 
43.000000000000, -0.41572499275208,0.68474125862122,-0.57377749681473, -0.1777795106172 
43.060001373291, -0.42005169391632,0.68014699220657,-0.57461833953857, -0.1823622584343 
43.119998931885, -0.42433083057404,0.67552334070206,-0.57541680335999, -0.1869611889123 
43.180000305176, -0.42856228351593,0.67087060213089,-0.57617259025574, -0.1915755867958 
43.240001678467, -0.43274503946304,0.66618973016739,-0.57688558101654, -0.1962053030729 
43.299999237061, -0.43687999248505,0.66148048639297,-0.57755565643311, -0.2008496075868 
43.360000610352, -0.44096660614014,0.65674376487732,-0.57818269729614, -0.2055083662271 
43.419998168945, -0.44500440359116,0.65198016166687,-0.57876640558243, -0.2101808637380 
43.479999542236, -0.44899362325668,0.64719015359879,-0.57930684089661, -0.2148669362068 
43.540000915527, -0.45293369889259,0.64237433671951,-0.57980388402939, -0.2195655703544 
43.599998474121, -0.45682483911514,0.63753312826157,-0.58025729656219, -0.2242769151926 
43.659999847412, -0.46066683530807,0.63266682624817,-0.58066701889038, -0.2290002256631 
43.720001220703, -0.46445932984352,0.62777656316757,-0.58103287220001, -0.2337350994348 
43.779998779297, -0.46820205450058,0.62286257743835,-0.58135479688644, -0.2384812980890 
43.840000152588, -0.47189563512802,0.61792498826981,-0.58163285255432, -0.2432376295328 
43.900001525879, -0.47553923726082,0.61296492815018,-0.58186662197113, -0.2480047494173 
43.959999084473, -0.47913306951523,0.60798245668411,-0.58205628395081, -0.2527813315391 
44.020000457764, -0.48267704248428,0.60297834873199,-0.58220160007477, -0.2575672268867 
44.080001831055, -0.48617044091225,0.59795337915421,-0.58230268955231, -0.2623617351055 
44.139999389648, -0.48961403965950,0.59290754795074,-0.58235919475555, -0.2671649754047 
44.200000762939, -0.49300715327263,0.58784174919128,-0.58237123489380, -0.2719759047031 
44.259998321533, -0.49634999036789,0.58275628089905,-0.58233875036240, -0.2767944037914 
44.319999694824, -0.49964246153831,0.57765167951584,-0.58226150274277, -0.2816199958324 
44.380001068115, -0.50288450717926,0.57252860069275,-0.58213984966278, -0.2864517271518 
44.439998626709, -0.50607573986053,0.56738764047623,-0.58197325468063, -0.2912899255752 
44.500000000000, -0.50921607017517,0.56222933530807,-0.58176189661026, -0.2961336374282 
44.560001373291, -0.51230585575104,0.55705410242081,-0.58150577545166, -0.3009826540947 
44.619998931885, -0.51534515619278,0.55186212062836,-0.58120477199554, -0.3058363199234 
44.680000305176, -0.51833343505859,0.54665440320969,-0.58085876703262, -0.3106943964958 
44.740001678467, -0.52127087116241,0.54143118858337,-0.58046811819077, -0.3155559599399 
44.799999237061, -0.52415740489960,0.53619313240051,-0.58003246784210, -0.3204210400581 
44.860000610352, -0.52699291706085,0.53094089031219,-0.57955187559128, -0.3252892494201 
44.919998168945, -0.52977758646011,0.52567458152771,-0.57902634143829, -0.3301596045494 
44.979999542236, -0.53251123428345,0.52039515972137,-0.57845586538315, -0.3350321650505 
45.040000915527, -0.53519392013550,0.51510286331177,-0.57784038782120, -0.3399062454700 
45.099998474121, -0.53782552480698,0.50979834794998,-0.57718002796173, -0.3447814583778 
45.159999847412, -0.54040622711182,0.50448209047318,-0.57647472620010, -0.3496572375297 
45.220001220703, -0.54293590784073,0.49915450811386,-0.57572454214096, -0.3545332252979 
45.279998779297, -0.54541456699371,0.49381613731384,-0.57492935657501, -0.3594090342521 
45.340000152588, -0.54784226417542,0.48846751451492,-0.57408946752548, -0.3642841577529 
45.400001525879, -0.55021899938583,0.48310926556587,-0.57320469617844, -0.3691581487655 
45.459999084473, -0.55254477262497,0.47774180769920,-0.57227504253387, -0.3740306496620 
45.520000457764, -0.55481964349747,0.47236546874046,-0.57130074501038, -0.3789011538028 
45.580001831055, -0.55704367160797,0.46698099374771,-0.57028162479401, -0.3837692439556 
45.639999389648, -0.55921679735184,0.46158871054649,-0.56921786069870, -0.3886342346668 
45.700000762939, -0.56133919954300,0.45618933439255,-0.56810945272446, -0.3934962451458 
45.759998321533, -0.56341081857681,0.45078310370445,-0.56695646047592, -0.3983542919158 
45.819999694824, -0.56543177366257,0.44537064433098,-0.56575912237167, -0.4032079279422 
45.880001068115, -0.56740212440491,0.43995255231857,-0.56451714038849, -0.4080572426319 
45.939998626709, -0.56932181119919,0.43452912569046,-0.56323099136353, -0.4129014313221 
46.000000000000, -0.57119101285934,0.42910090088844,-0.56190043687820, -0.4177401959896 
46.060001373291, -0.57300990819931,0.42366847395897,-0.56052559614182, -0.4225728511810 
46.119998931885, -0.57477831840515,0.41823223233223,-0.55910670757294, -0.4273993074894 
46.180000305176, -0.57649660110474,0.41279247403145,-0.55764389038086, -0.4322188198566 
46.240001678467, -0.57816457748413,0.40735009312630,-0.55613696575165, -0.4370315372943 
46.299999237061, -0.57978248596191,0.40190535783768,-0.55458623170853, -0.4418362677097 
46.360000610352, -0.58135044574738,0.39645859599113,-0.55299174785614, -0.4466331005096 
46.419998168945, -0.58286851644516,0.39101055264473,-0.55135351419449, -0.4514215886592 
46.479999542236, -0.58433681726456,0.38556152582169,-0.54967182874680, -0.4562011659145 
46.540000915527, -0.58575540781021,0.38011196255684,-0.54794675111771, -0.4609712660312 
46.599998474121, -0.58712446689606,0.37466239929199,-0.54617822170258, -0.4657319188118 
46.659999847412, -0.58844417333603,0.36921340227127,-0.54436671733856, -0.4704823493957 
46.720001220703, -0.58971446752548,0.36376518011093,-0.54251205921173, -0.4752221405506 
46.779998779297, -0.59093564748764,0.35831844806671,-0.54061442613602, -0.4799513220787 
46.840000152588, -0.59210771322250,0.35287341475487,-0.53867393732071, -0.4846689999103 
46.900001525879, -0.59323090314865,0.34743052721024,-0.53669095039368, -0.4893749058246 
46.959999084473, -0.59430533647537,0.34199059009552,-0.53466516733170, -0.4940689206123 
47.020000457764, -0.59533107280731,0.33655378222466,-0.53259706497192, -0.4987503588199 
47.080001831055, -0.59630841016769,0.33112052083015,-0.53048688173294, -0.5034188628196 
47.139999389648, -0.59723746776581,0.32569137215614,-0.52833449840546, -0.5080739259719 
47.200000762939, -0.59811830520630,0.32026663422585,-0.52614033222198, -0.5127153396606 
47.259998321533, -0.59895110130310,0.31484693288803,-0.52390408515930, -0.5173428654670 
47.319999694824, -0.59973609447479,0.30943247675896,-0.52162629365921, -0.5219559073448 
47.380001068115, -0.60047334432602,0.30402392148972,-0.51930725574493, -0.5265541076660 
47.439998626709, -0.60116320848465,0.29862141609192,-0.51694691181183, -0.5311368107795 
47.500000000000, -0.60180574655533,0.29322549700737,-0.51454532146454, -0.5357040762901 
47.560001373291, -0.60240107774734,0.28783676028252,-0.51210284233093, -0.5402554273605 
47.619998931885, -0.60294950008392,0.28245547413826,-0.50961953401566, -0.5447906255722 
47.680000305176, -0.60345113277435,0.27708211541176,-0.50709581375122, -0.5493085980415 
47.740001678467, -0.60390615463257,0.27171704173088,-0.50453156232834, -0.5538100600242 
47.799999237061, -0.60431486368179,0.26636070013046,-0.50192713737488, -0.5582937598228 
47.860000610352, -0.60467731952667,0.26101338863373,-0.49928277730942, -0.5627596974372 
47.919998168945, -0.60499382019043,0.25567558407784,-0.49659848213196, -0.5672074556350 
47.979999542236, -0.60526460409164,0.25034761428833,-0.49387466907501, -0.5716367363929 
48.040000915527, -0.60548967123032,0.24503001570702,-0.49111151695251, -0.5760471224784 
48.099998474121, -0.60566943883896,0.23972304165363,-0.48830917477608, -0.5804380774498 
48.159999847412, -0.60580414533615,0.23442709445953,-0.48546767234802, -0.5848097205162 
48.220001220703, -0.60589385032654,0.22914274036884,-0.48258748650551, -0.5891614556312 
48.279998779297, -0.60593891143799,0.22387017309666,-0.47966858744621, -0.5934930443763 
48.340000152588, -0.60593938827515,0.21860983967781,-0.47671148180962, -0.5978037118911 
48.400001525879, -0.60589569807053,0.21336191892624,-0.47371628880501, -0.6020935773849 
48.459999084473, -0.60580796003342,0.20812714099884,-0.47068297863007, -0.6063622236251 
48.520000457764, -0.60567653179169,0.20290558040142,-0.46761214733124, -0.6106091737747 
48.580001831055, -0.60550141334534,0.19769774377346,-0.46450376510620, -0.6148343682289 
48.639999389648, -0.60528296232224,0.19250398874283,-0.46135815978050, -0.6190371513366 
48.700000762939, -0.60502147674561,0.18732459843159,-0.45817551016808, -0.6232175230979 
48.759998321533, -0.60471719503403,0.18216001987457,-0.45495635271072, -0.6273746490478 
48.819999694824, -0.60437029600143,0.17701038718224,-0.45170041918755, -0.6315089464187 
48.880001068115, -0.60398107767105,0.17187643051147,-0.44840818643570, -0.6356196999549 
48.939998626709, -0.60354977846146,0.16675826907158,-0.44508004188538, -0.6397064328193 
49.000000000000, -0.60307669639587,0.16165593266487,-0.44171610474586, -0.6437691450119 
49.060001373291, -0.60256195068359,0.15657034516335,-0.43831649422646, -0.6478074193000 
49.119998931885, -0.60200595855713,0.15150132775307,-0.43488183617592, -0.6518208980560 
49.180000305176, -0.60140895843506,0.14644974470139,-0.43141189217567, -0.6558095216751 
49.240001678467, -0.60077112913132,0.14141537249088,-0.42790716886520, -0.6597726941108 
49.299999237061, -0.60009276866913,0.13639882206917,-0.42436802387238, -0.6637101769447 
49.360000610352, -0.59937417507172,0.13140046596527,-0.42079466581345, -0.6676217913627 
49.419998168945, -0.59861558675766,0.12642031908035,-0.41718703508377, -0.6715074181556 
49.479999542236, -0.59781730175018,0.12145897746086,-0.41354602575302, -0.6753663420677 
49.540000915527, -0.59697961807251,0.11651679128408,-0.40987110137939, -0.6791986823082 
49.599998474121, -0.59610277414322,0.11159376055002,-0.40616333484650, -0.6830037832260 
49.659999847412, -0.59518706798553,0.10669023543596,-0.40242236852646, -0.6867818236351 
49.720001220703, -0.59423279762268,0.10180678218603,-0.39864903688431, -0.6905320882797 
49.779998779297, -0.59324014186859,0.09694371372461,-0.39484295248985, -0.6942546963691 
49.840000152588, -0.59220957756042,0.09210077673196,-0.39100506901741, -0.6979490518569 
49.900001525879, -0.59114122390747,0.08727882802486,-0.38713520765305, -0.7016150951385 
49.959999084473, -0.59003537893295,0.08247786760330,-0.38323381543159, -0.7052527070045 
50.020000457764, -0.58889245986938,0.07769821584224,-0.37930101156235, -0.7088612914085 
50.080001831055, -0.58771270513535,0.07294043153524,-0.37533727288246, -0.7124409079551 
50.139999389648, -0.58649635314941,0.06820423156023,-0.37134280800819, -0.7159911990165 
50.200000762939, -0.58524370193481,0.06349017471075,-0.36731800436974, -0.7195117473602 
50.259998321533, -0.58395516872406,0.05879855528473,-0.36326304078102, -0.7230024337768 
50.319999694824, -0.58263093233109,0.05412963032722,-0.35917809605598, -0.7264632582664 
50.380001068115, -0.58127123117447,0.04948366805911,-0.35506361722946, -0.7298937439918 
50.439998626709, -0.57987654209137,0.04486081004142,-0.35091990232468, -0.7332935333252 
50.500000000000, -0.57844710350037,0.04026131331920,-0.34674718976021, -0.7366626262664 
50.560001373291, -0.57698315382004,0.03568557649850,-0.34254601597786, -0.7400006651878 
50.619998931885, -0.57548511028290,0.03113371506333,-0.33831632137299, -0.7433076500892 
50.680000305176, -0.57395315170288,0.02660597860813,-0.33405837416649, -0.7465832829475 
50.740001678467, -0.57238775491714,0.02210248261690,-0.32977283000946, -0.7498271465301 
50.799999237061, -0.57078909873962,0.01762374304235,-0.32545965909958, -0.7530392408371 
50.860000610352, -0.56915742158890,0.01316972635686,-0.32111945748329, -0.7562192082405 
50.919998168945, -0.56749325990677,0.00874067563563,-0.31675225496292, -0.7593670487403 
50.979999542236, -0.56579679250717,0.00433682138100,-0.31235843896866, -0.7624825239181 
51.040000915527, -0.56406825780869,-4.133600668865e-5, -0.30793839693069, -0.7655651569366 
51.099998474121, -0.56230813264847,-0.0043939757160,-0.30349257588387, -0.7686149477958 
51.159999847412, -0.56051659584045,-0.0087207378819,-0.29902091622353, -0.7716317772865 
51.220001220703, -0.55869412422180,-0.0130212726071,-0.29452392458916, -0.7746152877807 
51.279998779297, -0.55684083700180,-0.0172957628965,-0.29000189900398, -0.7775655984878 
51.340000152588, -0.55495721101761,-0.0215437300503,-0.28545513749123, -0.7804822921752 
51.400001525879, -0.55304348468781,-0.0257649682462,-0.28088378906250, -0.7833651900291 
51.459999084473, -0.55110001564026,-0.0299592707306,-0.27628853917122, -0.7862142324447 
51.520000457764, -0.54912710189819,-0.0341267026960,-0.27166950702667, -0.7890291213989 
51.580001831055, -0.54712510108948,-0.0382668040692,-0.26702675223351, -0.7918096780777 
51.639999389648, -0.54509425163269,-0.0423796400427,-0.26236090064049, -0.7945559620857 
51.700000762939, -0.54303497076035,-0.0464647524058,-0.25767236948013, -0.7972674965858 
51.759998321533, -0.54094749689102,-0.0505222342908,-0.25296109914780, -0.7999443411827 
51.819999694824, -0.53883224725723,-0.0545517578721,-0.24822780489922, -0.8025863170623 
51.880001068115, -0.53668946027756,-0.0585532784461,-0.24347244203091, -0.8051932454109 
51.939998626709, -0.53451949357986,-0.0625264793634,-0.23869569599628, -0.8077649474144 
52.000000000000, -0.53232270479202,-0.0664714723825,-0.23389726877213, -0.8103014230728 
52.060001373291, -0.53009933233261,-0.0703879371285,-0.22907812893391, -0.8128023743629 
52.119998931885, -0.52784979343414,-0.0742755755782,-0.22423854470253, -0.8152675628662 
52.180000305176, -0.52557432651520,-0.0781344994902,-0.21937844157219, -0.8176971673965 
52.240001678467, -0.52327340841293,-0.0819644182920,-0.21449814736843, -0.8200907707214 
52.299999237061, -0.52094721794128,-0.0857653021812,-0.20959842205048, -0.8224484324455 
52.360000610352, -0.51859605312347,-0.0895368680357,-0.20467913150787, -0.8247699141502 
52.419998168945, -0.51622033119202,-0.0932792201638,-0.19974102079868, -0.8270550966262 
52.479999542236, -0.51382040977478,-0.0969919785857,-0.19478400051594, -0.8293040394783 
52.540000915527, -0.51139652729034,-0.1006751134991,-0.18980881571770, -0.8315162658691 
52.599998474121, -0.50894904136658,-0.1043286100029,-0.18481555581093, -0.8336919546127 
52.659999847412, -0.50647830963135,-0.1079522073268,-0.17980436980724, -0.8358309864997 
52.720001220703, -0.50398463010788,-0.1115459203720,-0.17477577924728, -0.8379333019256 
52.779998779297, -0.50146824121475,-0.1151093542575,-0.16973009705544, -0.8399984836578 
52.840000152588, -0.49892961978912,-0.1186428740620,-0.16466763615608, -0.8420267701149 
52.900001525879, -0.49636906385422,-0.1221458911895,-0.15958875417709, -0.8440179228782 
52.959999084473, -0.49378681182861,-0.1256187409162,-0.15449354052544, -0.8459717631340 
53.020000457764, -0.49118328094482,-0.1290609836578,-0.14938272535801, -0.8478884100914 
53.080001831055, -0.48855867981911,-0.1324727237224,-0.14425624907017, -0.8497675657272 
53.139999389648, -0.48591345548630,-0.1358537524938,-0.13911460340023, -0.8516092896461 
53.200000762939, -0.48324784636497,-0.1392040699720,-0.13395814597607, -0.8534135222435 
53.259998321533, -0.48056223988533,-0.1425235867500,-0.12878715991974, -0.8551800847053 
53.319999694824, -0.47785690426826,-0.1458123028278,-0.12360182404518, -0.8569087982177 
